!Keysight Technologies,N5225A,MY51451266,A.10.64.09
!Date: Monday, November 13, 2023 14:08:38
!Correction: S11(Full 3 Port(1,2,3)) 
!S12(Full 3 Port(1,2,3)) 
!S13(Full 3 Port(1,2,3)) 
!S21(Full 3 Port(1,2,3)) 
!S22(Full 3 Port(1,2,3)) 
!S23(Full 3 Port(1,2,3)) 
!S31(Full 3 Port(1,2,3)) 
!S32(Full 3 Port(1,2,3)) 
!S33(Full 3 Port(1,2,3)) 
!S3P File: Measurements: <S11,S12,S13>,
!<S21,S22,S23>,
!<S31,S32,S33>:
# Hz S  dB   R 50
10000000 -44.380066 9.3205738 -0.030762384 -0.93782359 -71.802673 110.07981
-0.032680273 -0.94496822 -46.734459 -9.2309647 -78.544624 121.70537
-72.473991 45.132874 -77.366112 34.810013 -0.45781115 179.45815
20000000 -44.389721 10.493506 -0.030615343 -1.0209165 -71.846947 109.19186
-0.032575771 -1.0279578 -46.682671 -7.0200787 -78.615944 119.44317
-72.471451 46.622742 -77.376427 48.790077 -0.45758969 179.39874
30000000 -44.375889 11.536743 -0.030495392 -1.1072934 -71.870018 107.76723
-0.032483142 -1.114105 -46.602631 -4.8325491 -78.72979 118.2047
-72.448074 47.884518 -77.474144 64.186882 -0.45743972 179.33629
40000000 -44.369507 12.745096 -0.030543119 -1.1969402 -71.929581 106.52137
-0.032446161 -1.2034156 -46.51384 -2.7516885 -78.783226 115.4433
-72.402802 48.84264 -77.561523 78.430626 -0.45758557 179.27208
50000000 -44.36488 13.929255 -0.030475786 -1.2894152 -71.907516 105.30258
-0.032310188 -1.2955749 -46.427822 -0.71441299 -78.817139 112.63322
-72.355759 50.1688 -77.622673 93.500854 -0.45761222 179.20584
60000000 -44.36554 15.175424 -0.030475272 -1.3847977 -71.912338 103.88579
-0.032239027 -1.3906729 -46.341408 1.3530656 -78.901299 109.99993
-72.300079 51.459686 -77.92321 107.12032 -0.45762387 179.13773
70000000 -44.364143 16.454496 -0.03044142 -1.4832914 -71.933281 102.39799
-0.0321678 -1.4890577 -46.255936 3.4248257 -79.056564 107.51833
-72.289581 52.562683 -78.054314 122.17522 -0.45769072 179.06737
80000000 -44.362247 17.786692 -0.030493218 -1.5853884 -71.914391 101.01392
-0.032170229 -1.5906967 -46.165462 5.4606404 -79.161964 104.5677
-72.245583 53.787643 -78.091064 136.65216 -0.45782825 178.99391
90000000 -44.356083 19.157917 -0.03051178 -1.690423 -71.878571 99.931587
-0.032107417 -1.6956233 -46.055187 7.5687633 -79.223785 102.43429
-72.25576 55.200447 -78.176323 150.96608 -0.45796478 178.91826
100000000 -44.339787 20.575991 -0.030625226 -1.79865 -71.852676 98.59304
-0.03210545 -1.8034697 -45.946327 9.6975727 -79.408394 99.780403
-72.175987 56.497879 -78.145378 165.01671 -0.45821092 178.84067
110000000 -44.3209 21.984797 -0.030704541 -1.9101354 -71.824997 97.121017
-0.032123338 -1.9143541 -45.838036 11.810251 -79.559776 96.551567
-72.084381 57.83046 -78.231567 179.33215 -0.45842475 178.76033
120000000 -44.304726 23.398655 -0.030813508 -2.0244286 -71.780319 95.73262
-0.032158773 -2.0285544 -45.725132 13.83133 -79.695686 93.727219
-72.020485 58.88419 -78.343254 -165.666 -0.45868275 178.67796
130000000 -44.280075 24.858757 -0.030898409 -2.1418796 -71.736176 94.544136
-0.032199189 -2.145659 -45.603596 15.87898 -79.826485 90.810768
-71.97818 60.036976 -78.456375 -151.53889 -0.45902482 178.59338
140000000 -44.260635 26.272726 -0.030963184 -2.2626116 -71.682442 93.277611
-0.032254267 -2.2660942 -45.478722 17.923149 -79.88868 88.238243
-71.888893 61.198051 -78.473877 -136.97115 -0.45932862 178.50621
150000000 -44.243126 27.730326 -0.031039819 -2.3863349 -71.640396 91.879715
-0.032295488 -2.389467 -45.358082 19.936171 -80.05809 85.106422
-71.794678 62.406673 -78.595284 -121.44982 -0.45963615 178.4169
160000000 -44.229435 29.221964 -0.031106103 -2.5130312 -71.597214 90.532166
-0.032336801 -2.5160542 -45.236149 21.980021 -80.220642 82.203751
-71.700302 63.580006 -78.619164 -107.46601 -0.4599016 178.32573
170000000 -44.213676 30.725046 -0.031132629 -2.6430609 -71.545586 89.305504
-0.032388814 -2.6458824 -45.116482 24.03229 -80.266434 79.190857
-71.575096 64.975288 -78.683037 -93.024269 -0.46022421 178.23235
180000000 -44.196995 32.26078 -0.031234898 -2.7761917 -71.489151 88.10997
-0.032437846 -2.7786939 -44.998959 26.12101 -80.312256 77.01355
-71.467682 66.313721 -78.672569 -78.567909 -0.46056595 178.13724
190000000 -44.179012 33.814251 -0.031364709 -2.9122431 -71.406975 86.861374
-0.032496277 -2.914634 -44.875137 28.249481 -80.299255 74.156891
-71.353996 67.582291 -78.648125 -64.673065 -0.46093982 178.04034
200000000 -44.157104 35.421127 -0.031517964 -3.0518043 -71.324692 85.644737
-0.032566231 -3.0537269 -44.741783 30.322813 -80.291428 71.362915
-71.237267 68.941566 -78.641769 -50.233772 -0.46135676 177.94125
210000000 -44.132656 36.926022 -0.031639893 -3.1942518 -71.24015 84.45488
-0.032590784 -3.195632 -44.600479 32.406193 -80.326767 68.706139
-71.108429 70.213249 -78.646202 -36.426975 -0.46185151 177.84036
220000000 -44.109642 38.525539 -0.031771876 -3.3397765 -71.153465 83.188751
-0.032694533 -3.3410726 -44.458317 34.47311 -80.332161 65.946152
-70.999969 71.658157 -78.674667 -22.236546 -0.46241871 177.73752
230000000 -44.083534 40.082825 -0.031928577 -3.4886391 -71.055763 81.892502
-0.03278923 -3.4894419 -44.31197 36.496349 -80.32206 62.932537
-70.861534 73.019829 -78.682182 -8.4519472 -0.46305323 177.63263
240000000 -44.052868 41.682209 -0.032085575 -3.6402807 -70.964592 80.56218
-0.032939684 -3.6407068 -44.164063 38.477039 -80.325684 60.028339
-70.738701 74.338234 -78.65493 5.4636559 -0.46382073 177.52592
250000000 -44.024139 43.307453 -0.032224968 -3.7950802 -70.873634 79.343323
-0.032991014 -3.7952971 -44.009212 40.443115 -80.344315 56.99971
-70.589584 75.612679 -78.636002 19.528763 -0.46449471 177.41656
260000000 -43.995056 44.946293 -0.032419175 -3.9528282 -70.786255 78.129333
-0.033103235 -3.9526424 -43.857101 42.39679 -80.374054 54.027607
-70.459526 76.944016 -78.619156 33.512932 -0.46524599 177.30539
270000000 -43.893486 47.257156 -0.032640323 -4.1083107 -70.489571 78.783539
-0.033308148 -4.1088681 -43.607548 43.478065 -80.310593 54.049778
-69.95755 76.508484 -78.552589 43.734852 -0.46596777 177.19681
280000000 -43.734901 49.379299 -0.032984033 -4.2609553 -70.137833 80.06897
-0.033607531 -4.2615156 -43.308098 44.394302 -80.213181 56.551975
-69.715401 77.246094 -78.452675 55.79369 -0.46692184 177.08887
290000000 -43.357639 49.409351 -0.03315527 -4.417417 -69.753876 81.529137
-0.033772517 -4.4173026 -42.921593 41.926064 -80.070694 60.784081
-69.193718 77.578346 -78.275871 68.655739 -0.46794227 176.97939
300000000 -43.186749 50.531002 -0.033342354 -4.5718045 -69.338455 82.476974
-0.034014273 -4.5716133 -42.666168 41.204605 -79.823593 63.501362
-68.933861 78.211098 -77.92099 79.989738 -0.46902797 176.87161
310000000 -43.068214 51.424858 -0.033753697 -4.7253919 -69.141174 83.544571
-0.034445602 -4.7249589 -42.45171 40.869583 -79.565552 66.90377
-68.575554 79.371338 -77.822899 87.505486 -0.47044703 176.76555
320000000 -42.987469 52.527077 -0.03415874 -4.8790708 -68.896927 83.569725
-0.034932707 -4.8791161 -42.243301 40.944378 -79.430946 70.96685
-68.30806 79.790916 -77.169037 92.096733 -0.47161156 176.65668
330000000 -42.891495 53.77932 -0.034536175 -5.0320468 -68.588928 83.90416
-0.035321638 -5.032279 -42.040852 41.061897 -79.157417 76.476959
-67.965088 79.791786 -76.986649 97.275436 -0.47283688 176.55179
340000000 -42.803108 55.06049 -0.034909908 -5.1854744 -67.887825 82.562561
-0.035731297 -5.1854429 -41.830498 41.210087 -78.998322 81.306946
-67.629189 80.76754 -76.853798 98.519348 -0.47412831 176.44624
350000000 -42.672947 56.10474 -0.035325125 -5.3378825 -67.564247 82.501495
-0.036100827 -5.3379459 -41.650032 41.389004 -78.749588 87.556389
-67.342659 80.451576 -76.720154 99.011543 -0.47522575 176.34097
360000000 -42.531712 57.053421 -0.035815518 -5.4906301 -67.237267 82.179779
-0.036448691 -5.4905567 -41.460659 41.832428 -78.065544 91.730865
-67.08181 80.703194 -76.336082 99.363777 -0.47638091 176.2356
370000000 -42.390675 57.976379 -0.036337413 -5.6432953 -66.95462 82.240143
-0.036950365 -5.6435566 -41.231598 42.013943 -77.497177 94.463486
-66.832085 80.686531 -75.940392 98.871826 -0.47766867 176.13092
380000000 -42.258484 58.877029 -0.036846198 -5.7958813 -66.666039 81.974854
-0.037436184 -5.7961226 -41.011189 41.973251 -76.862106 95.999023
-66.590965 80.745239 -75.731087 98.179039 -0.4790794 176.02646
390000000 -42.138016 59.871582 -0.037298452 -5.9490438 -66.41494 81.787422
-0.037875086 -5.9491076 -40.782734 41.766666 -76.68988 95.269302
-66.34462 80.906792 -75.530731 97.813004 -0.48052299 175.92191
400000000 -42.043716 60.931587 -0.037716098 -6.102005 -66.146179 81.916435
-0.038269851 -6.1021972 -40.553928 41.419567 -76.368416 94.1791
-66.073143 81.112991 -75.312653 96.78685 -0.48205569 175.81641
410000000 -41.958199 61.991913 -0.038073573 -6.2548928 -65.896751 81.95742
-0.038587615 -6.2550364 -40.350719 41.017326 -75.816818 91.513733
-65.820885 81.219551 -74.995796 95.531975 -0.48382083 175.71248
420000000 -41.878933 63.030624 -0.038449969 -6.4074559 -65.645248 82.098076
-0.039023284 -6.4077559 -40.156677 40.653751 -75.552299 90.062912
-65.589172 81.276329 -74.686447 93.787209 -0.48548886 175.60904
430000000 -41.801922 64.116554 -0.038766325 -6.5596108 -65.356995 81.805786
-0.039379429 -6.560123 -39.96999 40.248474 -75.318001 89.502846
-65.369278 81.313477 -74.500237 92.476166 -0.48724002 175.50481
440000000 -41.714237 65.162407 -0.039191693 -6.7119827 -65.121849 81.760498
-0.039764434 -6.7125773 -39.777069 39.829254 -75.053017 87.950699
-65.055763 81.80394 -74.248009 91.274666 -0.48923409 175.40193
450000000 -41.632088 66.148659 -0.039685469 -6.8640509 -64.951965 81.938774
-0.040185917 -6.8648224 -39.576656 39.499889 -74.820663 87.077965
-64.819366 81.844475 -73.952637 90.039909 -0.49134272 175.30095
460000000 -41.547726 67.103287 -0.040166631 -7.0160828 -64.749268 82.170303
-0.040614314 -7.0166478 -39.392883 38.983116 -74.514053 85.401909
-64.558784 82.085236 -73.710144 89.812553 -0.49335852 175.20264
470000000 -41.463314 68.013794 -0.040516127 -7.1681442 -64.506134 82.362656
-0.041040681 -7.1686883 -39.224201 38.441254 -73.974388 84.894073
-64.290916 82.286423 -73.445923 88.6222 -0.49506873 175.10544
480000000 -41.392326 68.923553 -0.040957123 -7.3200541 -64.224739 82.610657
-0.041515462 -7.3206248 -39.044487 37.810238 -73.678925 82.618996
-64.071266 82.284767 -73.210579 85.459152 -0.49678457 175.00816
490000000 -41.315895 69.802856 -0.041427866 -7.4719591 -64.019585 82.711708
-0.042015098 -7.4727726 -38.89558 37.237728 -73.199661 80.61557
-63.817894 82.292465 -72.848801 84.527702 -0.49829459 174.91179
500000000 -41.248409 70.70842 -0.041817565 -7.6238999 -63.799091 82.524139
-0.042383607 -7.6249166 -38.739815 36.683483 -72.793861 77.288536
-63.595829 82.369957 -72.655777 81.858536 -0.49976569 174.81511
510000000 -41.175571 71.533485 -0.042429771 -7.7760663 -63.553089 82.188431
-0.042837415 -7.7769728 -38.57608 36.171108 -72.598251 75.17215
-63.359562 82.204521 -72.510353 80.353073 -0.50153619 174.71971
520000000 -41.12431 72.520538 -0.042947631 -7.9282761 -63.319176 82.358299
-0.043289062 -7.9290695 -38.435276 35.672836 -72.343277 71.774879
-63.137993 82.283867 -72.259888 77.1688 -0.50311565 174.62654
530000000 -41.064297 73.381126 -0.043315582 -8.0803356 -63.034725 82.351265
-0.043631256 -8.080945 -38.298573 35.255569 -72.163742 69.634949
-62.940674 82.604057 -72.029945 74.98452 -0.50413787 174.53372
540000000 -41.003757 74.243187 -0.043762673 -8.2324457 -62.833752 82.278641
-0.044167157 -8.2329473 -38.161274 34.850681 -72.029297 67.353325
-62.734669 82.541 -71.824669 71.742027 -0.50509596 174.44141
550000000 -40.93605 75.066399 -0.044180084 -8.3847208 -62.602489 82.377983
-0.044613138 -8.3853312 -38.024582 34.401161 -71.868828 64.690376
-62.530357 82.496368 -71.42028 69.704239 -0.50588769 174.34782
560000000 -40.873013 75.912071 -0.044568952 -8.5369625 -62.350677 82.517197
-0.045033194 -8.5373135 -37.885132 33.935188 -71.615211 61.779327
-62.279984 82.601753 -71.185913 66.330566 -0.50648034 174.25388
570000000 -40.808517 76.711464 -0.044966441 -8.6887083 -62.135319 82.525772
-0.045415156 -8.689229 -37.749771 33.491371 -71.432175 59.289711
-62.057346 82.566551 -71.053421 63.451809 -0.50694495 174.16051
580000000 -40.747822 77.490898 -0.045383509 -8.8406057 -61.938301 82.24292
-0.045859076 -8.8407249 -37.632244 32.961296 -71.304909 55.866425
-61.784836 82.336899 -70.892494 60.750065 -0.50727618 174.06644
590000000 -40.698677 78.225693 -0.045758843 -8.9923649 -61.728607 82.173752
-0.046308298 -8.9927015 -37.507824 32.395573 -71.093491 52.888626
-61.602364 82.188721 -70.860214 58.015171 -0.50756258 173.97119
600000000 -40.654537 79.009132 -0.046140533 -9.143857 -61.515957 82.175308
-0.046692863 -9.1446609 -37.383789 31.837141 -70.88958 50.299141
-61.418983 81.959442 -70.693802 54.820522 -0.50777924 173.8768
610000000 -40.607952 79.7584 -0.046495624 -9.2957582 -61.318676 82.096039
-0.047068309 -9.2963409 -37.266228 31.372234 -70.692596 47.122486
-61.213959 82.008659 -70.512993 50.84103 -0.50780129 173.78145
620000000 -40.570766 80.479645 -0.046864901 -9.4474354 -61.119022 81.799957
-0.047478896 -9.448081 -37.154606 30.875397 -70.498268 43.874542
-60.983959 81.962219 -70.310997 47.638393 -0.50766158 173.68602
630000000 -40.529739 81.292946 -0.047295548 -9.5989399 -60.923397 81.582466
-0.047872111 -9.5995855 -37.037563 30.359467 -70.386482 40.10788
-60.79826 81.865486 -70.230957 43.721069 -0.50756407 173.59064
640000000 -40.486816 82.068726 -0.047686465 -9.7506599 -60.719795 81.500793
-0.048275448 -9.751153 -36.916088 29.861902 -70.157677 36.791237
-60.621754 81.71759 -70.066338 38.595547 -0.50745362 173.49525
650000000 -40.436241 82.818619 -0.048173439 -9.9023371 -60.520302 81.323807
-0.048763357 -9.9027767 -36.794418 29.303875 -69.948967 33.170341
-60.436741 81.594597 -69.971214 34.949249 -0.50747597 173.39891
660000000 -40.386917 83.577858 -0.048624929 -10.053685 -60.318848 80.985748
-0.04923135 -10.054006 -36.672958 28.727978 -69.883018 29.603996
-60.283649 81.228699 -69.884224 30.885416 -0.50727898 173.30356
670000000 -40.337147 84.304367 -0.049063716 -10.205202 -60.123985 80.643829
-0.049690649 -10.205488 -36.547825 28.11199 -69.7416 25.116364
-60.111969 80.92218 -69.789146 26.830795 -0.50688297 173.2074
680000000 -40.283855 85.101486 -0.049495127 -10.3569 -59.955704 80.333794
-0.050111149 -10.356813 -36.424072 27.454645 -69.647949 20.97201
-59.944698 80.643333 -69.689049 22.859461 -0.50645679 173.10925
690000000 -40.238029 85.820198 -0.049919974 -10.507977 -59.783222 79.963638
-0.050555434 -10.50818 -36.307175 26.83988 -69.557457 16.46039
-59.771217 80.213623 -69.559334 18.013056 -0.50604278 173.00998
700000000 -40.192211 86.675064 -0.050337259 -10.659324 -59.612099 79.560097
-0.051063351 -10.659811 -36.195049 26.192547 -69.459709 11.539248
-59.616837 79.90493 -69.457787 13.606021 -0.50564605 172.90945
710000000 -40.143803 87.460739 -0.050745677 -10.810562 -59.448299 79.185211
-0.051465478 -10.811152 -36.085018 25.546726 -69.379982 6.9774132
-59.444695 79.414314 -69.351837 8.9438772 -0.50522155 172.80875
720000000 -40.098873 88.269661 -0.051147897 -10.961819 -59.294365 78.858246
-0.051826045 -10.962613 -35.976307 24.948381 -69.290993 2.3817272
-59.299526 78.983444 -69.22007 4.4743915 -0.50454438 172.70634
730000000 -40.05772 89.055191 -0.05158573 -11.113297 -59.130157 78.547508
-0.05218485 -11.114128 -35.863571 24.353216 -69.157677 -2.4158797
-59.13784 78.569115 -69.108849 -0.2308386 -0.50377429 172.60292
740000000 -40.017475 89.816505 -0.052013472 -11.264688 -58.961288 78.107315
-0.052658293 -11.265594 -35.755539 23.768093 -69.019882 -7.4755406
-58.995914 78.179893 -68.97789 -5.3770347 -0.50321066 172.49858
750000000 -39.976597 90.605942 -0.052406978 -11.416192 -58.787888 77.628586
-0.053066753 -11.417169 -35.644146 23.173761 -68.874268 -12.696487
-58.836517 77.747078 -68.857735 -10.610951 -0.50276482 172.39322
760000000 -39.941147 91.385017 -0.052865077 -11.56721 -58.651539 77.21109
-0.053474527 -11.568258 -35.538563 22.583303 -68.752739 -17.720469
-58.681835 77.429596 -68.71447 -15.641888 -0.5024209 172.2886
770000000 -39.902203 92.159439 -0.053297766 -11.718429 -58.499844 76.701324
-0.053939041 -11.719274 -35.432503 21.990847 -68.6129 -23.003162
-58.529144 77.029213 -68.624939 -21.175884 -0.50203055 172.18436
780000000 -39.85746 92.878998 -0.053695608 -11.869284 -58.364639 76.29203
-0.054263011 -11.870151 -35.32589 21.369568 -68.522888 -28.591354
-58.371712 76.519737 -68.508904 -26.834509 -0.50168872 172.08009
790000000 -39.821728 93.641411 -0.054147638 -12.02045 -58.225796 75.877396
-0.054641064 -12.02129 -35.226616 20.770849 -68.435181 -33.693222
-58.237362 76.18486 -68.439552 -32.363979 -0.50128198 171.97604
800000000 -39.781368 94.447021 -0.054493774 -12.171483 -58.086864 75.449936
-0.055004753 -12.172376 -35.130192 20.134268 -68.341675 -39.411327
-58.102081 75.756439 -68.321411 -37.861706 -0.50087345 171.87134
810000000 -39.741516 95.264404 -0.054848194 -12.322359 -57.950329 74.902328
-0.055304062 -12.323318 -35.030258 19.507521 -68.202293 -45.005611
-57.968525 75.235168 -68.216026 -43.280804 -0.50065643 171.76698
820000000 -39.693684 96.114571 -0.055303175 -12.473657 -57.821922 74.493179
-0.055687927 -12.474853 -34.931732 18.881275 -68.082466 -50.655975
-57.833546 74.806274 -68.146805 -49.179401 -0.50040168 171.66054
830000000 -39.646519 96.962982 -0.05576786 -12.624727 -57.69545 74.098602
-0.056064665 -12.626026 -34.831741 18.224268 -67.993088 -56.12289
-57.709045 74.243561 -68.065514 -54.875164 -0.50031519 171.55405
840000000 -39.597664 97.824547 -0.056204434 -12.776098 -57.559757 73.616669
-0.056490324 -12.777265 -34.727997 17.562223 -67.871376 -61.942673
-57.592873 73.724007 -67.950821 -60.524334 -0.50026369 171.44653
850000000 -39.540501 98.708534 -0.056650084 -12.927238 -57.437347 73.146248
-0.056933254 -12.92853 -34.628937 16.879366 -67.802925 -67.294548
-57.457695 73.314903 -67.87822 -66.296005 -0.50027537 171.33884
860000000 -39.489971 99.580513 -0.057064768 -13.078599 -57.318245 72.724525
-0.057262197 -13.079872 -34.532173 16.201588 -67.75013 -72.775192
-57.333065 72.81617 -67.812904 -71.768288 -0.5002448 171.23047
870000000 -39.436131 100.47873 -0.057485841 -13.229883 -57.207729 72.272751
-0.057719167 -13.231254 -34.435081 15.529812 -67.658379 -78.443268
-57.204052 72.386124 -67.734718 -77.609894 -0.50012672 171.12186
880000000 -39.387085 101.39297 -0.057861369 -13.380842 -57.086472 71.826675
-0.057998322 -13.382353 -34.339493 14.844103 -67.54406 -84.061874
-57.069027 71.872681 -67.652954 -83.365753 -0.50007558 171.01222
890000000 -39.338726 102.29858 -0.058286622 -13.531955 -56.964111 71.318069
-0.058440592 -13.533305 -34.246342 14.12322 -67.455956 -89.629639
-56.945484 71.447594 -67.590378 -89.168373 -0.50003004 170.90356
900000000 -39.294815 103.27615 -0.058707684 -13.683178 -56.835335 70.71183
-0.058890652 -13.684675 -34.153702 13.4003 -67.39827 -95.060333
-56.836655 70.872063 -67.522018 -94.645996 -0.49989632 170.79337
910000000 -39.254166 104.27271 -0.059150625 -13.834188 -56.721378 70.060547
-0.059257988 -13.8355 -34.0616 12.708993 -67.289085 -100.53326
-56.718178 70.374886 -67.423141 -100.25402 -0.49989331 170.68358
920000000 -39.214172 105.24181 -0.05968662 -13.985376 -56.609226 69.48513
-0.059748266 -13.986566 -33.968243 12.028543 -67.230606 -106.26728
-56.615761 69.788269 -67.374222 -106.09067 -0.49992859 170.57469
930000000 -39.171238 106.28073 -0.060070485 -14.136485 -56.504292 68.923851
-0.060188971 -14.137891 -33.87093 11.337729 -67.175598 -111.71201
-56.511772 69.19883 -67.321976 -111.55032 -0.49971521 170.4644
940000000 -39.12735 107.27569 -0.060400523 -14.287737 -56.400299 68.261391
-0.060625743 -14.289094 -33.775589 10.640975 -67.14901 -117.0947
-56.399471 68.558998 -67.266418 -116.96203 -0.49935237 170.35208
