!Keysight Technologies,N5225A,MY51451266,A.10.64.09
!Date: Monday, November 13, 2023 14:08:48
!Correction: S11(Full 3 Port(1,2,3)) 
!S12(Full 3 Port(1,2,3)) 
!S13(Full 3 Port(1,2,3)) 
!S21(Full 3 Port(1,2,3)) 
!S22(Full 3 Port(1,2,3)) 
!S23(Full 3 Port(1,2,3)) 
!S31(Full 3 Port(1,2,3)) 
!S32(Full 3 Port(1,2,3)) 
!S33(Full 3 Port(1,2,3)) 
!S3P File: Measurements: <S11,S12,S13>,
!<S21,S22,S23>,
!<S31,S32,S33>:
# Hz S  dB   R 50
10000000 -0.31345835 179.11317 -30.232937 -4.3692431 -70.652191 -7.8276315
-30.236677 -3.3307481 -0.32173556 178.70322 -75.600609 -137.15552
-81.360741 -128.79218 -78.699554 -137.05138 -2.1641161 -44.654976
20000000 -0.3138755 179.03595 -30.244659 -4.3404627 -70.844658 -5.3567739
-30.248064 -3.3509274 -0.32205027 178.60663 -75.776878 -148.51425
-81.099686 -121.06432 -78.617897 -149.00229 -2.1625605 -47.07275
30000000 -0.31440672 178.95493 -30.256813 -4.3240895 -70.950722 -2.1283584
-30.260462 -3.3723829 -0.32249159 178.50661 -75.913879 -161.01935
-80.808502 -113.07178 -78.553703 -161.16855 -2.1530578 -49.510799
40000000 -0.31509471 178.87082 -30.269081 -4.3060155 -71.119759 0.37247929
-30.272306 -3.3944075 -0.32294175 178.40204 -76.229446 -171.93492
-80.626053 -105.82102 -78.729591 -170.85004 -2.1406655 -52.02396
50000000 -0.31566116 178.78392 -30.281256 -4.289258 -71.348663 3.2556877
-30.284424 -3.4180043 -0.32328331 178.29395 -76.373253 176.26164
-80.318901 -98.096786 -78.720825 177.27946 -2.1328559 -54.579025
60000000 -0.31624559 178.69427 -30.294044 -4.2715025 -71.450264 5.8522339
-30.296587 -3.4453688 -0.32377279 178.18202 -76.479485 164.1852
-80.067345 -90.597061 -78.611778 165.77174 -2.1245332 -57.112682
70000000 -0.31675121 178.60228 -30.306747 -4.2607517 -71.61776 9.0966768
-30.30905 -3.475775 -0.32419786 178.06648 -76.578674 151.45198
-79.810646 -82.744118 -78.510132 153.37939 -2.1068039 -59.674805
80000000 -0.31740412 178.50697 -30.319567 -4.249258 -71.774109 11.534207
-30.32214 -3.5085435 -0.32467461 177.94713 -76.818535 138.51544
-79.545158 -74.897919 -78.621025 141.05554 -2.086062 -62.308422
90000000 -0.31803569 178.40848 -30.332687 -4.2418404 -71.880516 14.141522
-30.334862 -3.546144 -0.32517213 177.82381 -77.039307 123.69736
-79.317818 -67.124969 -79.023903 129.21742 -2.0665877 -64.997414
100000000 -0.31869268 178.30733 -30.345545 -4.2393775 -72.073502 16.699852
-30.347694 -3.58605 -0.32571685 177.6965 -77.378883 110.68488
-79.034485 -59.645241 -79.144028 119.47906 -2.0489318 -67.723473
110000000 -0.31926611 178.20345 -30.358635 -4.2362323 -72.245552 19.296709
-30.360613 -3.6280241 -0.32628199 177.56544 -77.672592 99.362953
-78.760284 -51.908291 -79.396019 108.49097 -2.0325737 -70.478424
120000000 -0.31990394 178.09726 -30.371456 -4.2368069 -72.395546 21.717819
-30.373154 -3.6721928 -0.32687253 177.43114 -78.241142 89.286537
-78.493286 -44.1628 -79.698112 99.815277 -2.0168247 -73.256348
130000000 -0.32046321 177.98801 -30.384418 -4.2375741 -72.527222 24.289183
-30.38592 -3.7147431 -0.32739002 177.29272 -78.481239 77.940453
-78.184654 -36.45953 -79.768051 89.071129 -2.0011516 -76.059143
140000000 -0.32113412 177.87578 -30.397408 -4.2445059 -72.659096 26.978786
-30.398947 -3.7644019 -0.32802334 177.15059 -78.612167 67.249245
-77.915642 -28.682178 -79.831299 78.656487 -1.9862138 -78.881828
150000000 -0.32171261 177.7607 -30.410633 -4.2526569 -72.761925 29.736687
-30.411957 -3.8142209 -0.32859734 177.00459 -78.879448 56.947495
-77.582626 -21.059219 -79.893669 68.288002 -1.9706225 -81.730186
160000000 -0.32224867 177.64262 -30.423834 -4.261373 -72.898491 32.431709
-30.424957 -3.8678799 -0.32922047 176.85561 -79.02066 46.77821
-77.278709 -13.533994 -79.773582 58.415268 -1.9554466 -84.599594
170000000 -0.32280305 177.52177 -30.437048 -4.2724648 -73.017845 35.091297
-30.438183 -3.9240994 -0.32988122 176.70236 -79.167328 36.243988
-76.990898 -5.8718433 -79.74588 47.301968 -1.9404693 -87.483917
180000000 -0.32331827 177.39838 -30.450743 -4.2889428 -73.151085 37.811481
-30.451679 -3.9855785 -0.3305572 176.54539 -79.305138 25.763166
-76.708069 2.1268013 -79.733604 36.658546 -1.925119 -90.387108
190000000 -0.32382748 177.27216 -30.46439 -4.3082395 -73.281448 40.655453
-30.464672 -4.0438628 -0.33122659 176.3849 -79.431 14.964589
-76.464828 9.8603315 -79.638268 25.777399 -1.9096678 -93.304405
200000000 -0.32444087 177.14291 -30.477983 -4.3288403 -73.346146 43.474957
-30.47809 -4.1080551 -0.33188704 176.22087 -79.549545 3.7420442
-76.148384 17.676842 -79.588341 14.602192 -1.8929821 -96.233955
210000000 -0.3249892 177.01094 -30.49169 -4.3539038 -73.458817 46.534554
-30.491495 -4.1761861 -0.33262253 176.05342 -80.059906 -7.1324043
-75.815758 25.688377 -79.722076 4.0745807 -1.8742172 -99.183083
220000000 -0.32554021 176.87627 -30.505169 -4.3788996 -73.553787 49.377728
-30.504824 -4.2480392 -0.33328009 175.88197 -80.284599 -17.126801
-75.475967 33.540668 -79.824669 -6.3995681 -1.8546269 -102.16381
230000000 -0.32616401 176.7386 -30.519016 -4.4088569 -73.630058 52.063377
-30.518314 -4.3211308 -0.33400631 175.70677 -80.450188 -26.725489
-75.126854 41.429695 -79.788841 -15.987409 -1.8354281 -105.16814
240000000 -0.32684523 176.59877 -30.532875 -4.441484 -73.730148 54.761112
-30.532463 -4.3958254 -0.33473477 175.52776 -80.502983 -36.481697
-74.781258 49.122601 -79.758324 -25.668617 -1.8165606 -108.19527
250000000 -0.32746416 176.45586 -30.546844 -4.4747624 -73.814926 57.459518
-30.545675 -4.472827 -0.33545482 175.34515 -80.530403 -46.214054
-74.433243 56.736095 -79.61055 -35.443375 -1.7980831 -111.24302
260000000 -0.32813817 176.31062 -30.560745 -4.5128331 -73.892601 60.012043
-30.559416 -4.5534501 -0.33623239 175.15898 -80.557961 -56.126415
-74.079521 64.531487 -79.447319 -45.285774 -1.7802838 -114.30797
270000000 -0.32816553 176.16823 -30.57056 -4.6064959 -73.632607 64.30938
-30.568575 -4.6539011 -0.33700225 174.97128 -80.471207 -64.90387
-73.688553 70.384804 -79.069336 -51.527412 -1.7215002 -117.19566
280000000 -0.32837412 176.02631 -30.57921 -4.7073359 -73.376221 66.521324
-30.575928 -4.7494674 -0.33803475 174.7852 -80.166618 -71.92926
-73.31823 72.558495 -78.72834 -60.434315 -1.6652466 -120.06673
290000000 -0.32875738 175.88246 -30.585905 -4.8146658 -72.621269 68.685585
-30.582329 -4.8562527 -0.33887911 174.59915 -79.558426 -77.850983
-72.971123 72.960358 -78.50705 -67.9282 -1.6239247 -122.87238
300000000 -0.32917008 175.73967 -30.59193 -4.9266815 -72.306862 69.124512
-30.588612 -4.9641256 -0.33972523 174.41357 -79.086479 -82.277481
-72.579613 71.446747 -78.200638 -73.582878 -1.5981886 -125.53314
310000000 -0.32964 175.59819 -30.597742 -5.0368433 -71.961266 70.485435
-30.594669 -5.0723248 -0.34089252 174.23026 -78.201828 -90.265915
-72.224327 72.367706 -77.66378 -81.074188 -1.5919067 -127.99041
320000000 -0.32992014 175.45569 -30.60256 -5.1516037 -71.716682 71.616608
-30.599665 -5.1832876 -0.34198818 174.04671 -77.98027 -95.691116
-71.743263 73.225647 -77.26564 -85.653351 -1.5807208 -130.24799
330000000 -0.33016258 175.31525 -30.607367 -5.2687321 -71.355927 71.401436
-30.603952 -5.2995629 -0.34299818 173.86328 -77.518578 -101.44618
-71.421776 72.626854 -76.892944 -91.171478 -1.5788416 -132.31552
340000000 -0.33037603 175.17444 -30.61167 -5.3878899 -70.9813 72.091438
-30.607838 -5.4160366 -0.34393194 173.68039 -77.195595 -107.47062
-71.147598 71.495628 -76.244995 -96.444031 -1.5522357 -134.20776
350000000 -0.33039236 175.0338 -30.616358 -5.5060463 -70.758011 71.888214
-30.612246 -5.5347919 -0.34507442 173.49892 -76.840889 -112.88345
-70.980499 71.796822 -75.944389 -101.61225 -1.540436 -136.15451
360000000 -0.33054081 174.89256 -30.62026 -5.6290274 -70.56485 72.172531
-30.616409 -5.656486 -0.34631613 173.31799 -76.523521 -117.40034
-70.742599 71.88765 -75.574295 -106.05928 -1.5328836 -137.91545
370000000 -0.33080211 174.75146 -30.624504 -5.7547145 -70.352959 71.956573
-30.620462 -5.7775784 -0.34754831 173.13655 -76.160706 -122.66732
-70.467178 71.761116 -75.300415 -110.89813 -1.5281763 -139.61829
380000000 -0.3311255 174.61124 -30.628448 -5.878365 -70.14119 71.417671
-30.624397 -5.8988466 -0.34870523 172.95491 -75.828835 -127.14455
-70.210846 71.605637 -74.93058 -114.32283 -1.526026 -141.16975
390000000 -0.33155543 174.47038 -30.632549 -6.0001817 -69.949127 71.886879
-30.628292 -6.021605 -0.34973451 172.77216 -75.095146 -129.95432
-69.995255 72.042145 -74.400215 -121.30472 -1.519012 -142.59151
400000000 -0.33210945 174.32951 -30.636713 -6.1271009 -69.674721 72.424011
-30.63221 -6.1470737 -0.35063004 172.58925 -74.645805 -135.37743
-69.712852 72.34433 -74.075119 -126.19588 -1.5122472 -143.93181
410000000 -0.3326548 174.18965 -30.640392 -6.2512994 -69.388092 72.762955
-30.636189 -6.2709489 -0.35141498 172.40643 -74.101227 -140.24704
-69.395775 72.53331 -73.652321 -130.59267 -1.4927652 -145.20981
420000000 -0.3332836 174.05028 -30.644142 -6.3762918 -69.073723 72.568581
-30.640127 -6.3955469 -0.35220978 172.22401 -73.599777 -146.2706
-69.101578 72.5355 -73.167465 -136.05649 -1.4686705 -146.48204
430000000 -0.33387461 173.91205 -30.647886 -6.4988852 -68.875633 72.583847
-30.6436 -6.5220408 -0.35284683 172.0423 -73.04232 -150.40262
-68.963577 71.931381 -72.764961 -140.68414 -1.4510279 -147.72836
440000000 -0.33447406 173.77382 -30.652254 -6.6264377 -68.648033 72.92907
-30.647303 -6.6506038 -0.35374695 171.86075 -72.696625 -154.57275
-68.727295 72.345848 -72.419243 -145.39046 -1.4313655 -148.9986
450000000 -0.3350693 173.63559 -30.655905 -6.7505393 -68.425079 72.655098
-30.651789 -6.7783389 -0.35461095 171.68005 -72.220642 -158.79849
-68.498817 72.422562 -71.949921 -148.83073 -1.4229025 -150.2012
460000000 -0.33573234 173.49811 -30.660002 -6.8759208 -68.225937 72.51873
-30.655655 -6.9048057 -0.35542536 171.49963 -71.731049 -162.0139
-68.21212 72.117516 -71.434914 -152.11105 -1.4162922 -151.32956
470000000 -0.33625349 173.36078 -30.663597 -7.0061946 -67.992928 72.306427
-30.659565 -7.0333147 -0.35621864 171.31912 -70.969879 -164.87346
-67.995499 72.060616 -70.903252 -155.5981 -1.4085073 -152.40108
480000000 -0.3368713 173.22348 -30.667694 -7.1306119 -67.745628 72.192902
-30.66354 -7.1566205 -0.35703057 171.13925 -70.45311 -164.84421
-67.819946 71.96553 -70.330513 -155.90036 -1.3988792 -153.43188
490000000 -0.33740413 173.08698 -30.671671 -7.2572069 -67.530914 72.190323
-30.667604 -7.2822409 -0.35784784 170.95891 -69.966652 -164.16739
-67.590836 72.088242 -69.776733 -155.58357 -1.3875145 -154.43448
500000000 -0.33787417 172.95045 -30.675438 -7.3818703 -67.233391 72.099854
-30.671347 -7.4063993 -0.35858691 170.77866 -69.33638 -163.77585
-67.321198 71.898911 -69.302353 -154.87239 -1.3734424 -155.41603
510000000 -0.33847901 172.8136 -30.679947 -7.5124006 -67.000046 72.080391
-30.676132 -7.5299821 -0.35946882 170.59843 -68.863388 -162.4178
-67.110016 71.730293 -68.921982 -152.85095 -1.3583642 -156.42616
520000000 -0.33897784 172.67758 -30.683962 -7.633348 -66.852226 71.349571
-30.680004 -7.6551976 -0.36020365 170.41815 -68.418037 -159.92349
-66.917549 71.258316 -68.507774 -150.62267 -1.3517376 -157.43523
530000000 -0.33933243 172.54187 -30.688095 -7.7593374 -66.633911 71.312607
-30.684216 -7.7827797 -0.3608546 170.23871 -67.770523 -159.01729
-66.631035 71.450356 -67.832047 -150.88576 -1.3492423 -158.39432
540000000 -0.33976984 172.40691 -30.692291 -7.8845253 -66.345436 70.837257
-30.688292 -7.9107885 -0.36173898 170.05911 -67.276283 -157.30052
-66.45713 71.126686 -67.324341 -149.02727 -1.3446279 -159.32962
550000000 -0.34015772 172.27191 -30.69607 -8.0148602 -66.18174 70.614769
-30.692593 -8.0381689 -0.3624579 169.87946 -66.808929 -155.3791
-66.227386 71.076874 -66.905159 -147.60475 -1.3428073 -160.29802
560000000 -0.34059376 172.13721 -30.699924 -8.1404982 -65.94342 69.796585
-30.696547 -8.1628094 -0.36320734 169.7001 -66.338036 -152.85303
-65.991455 70.610916 -66.469643 -145.34435 -1.352144 -161.24728
570000000 -0.34097245 172.00339 -30.70385 -8.2695179 -65.715042 69.773338
-30.700092 -8.2914 -0.36395514 169.52084 -65.71627 -150.16792
-65.769272 70.165459 -65.810303 -143.21248 -1.3661155 -162.13557
580000000 -0.3413201 171.87027 -30.707504 -8.3962564 -65.535385 69.564209
-30.704079 -8.4151707 -0.36467612 169.34212 -65.103943 -145.64963
-65.505478 69.786652 -64.846962 -141.60889 -1.3806643 -162.97754
590000000 -0.3417666 171.73689 -30.711884 -8.5216999 -65.263626 69.391464
-30.708204 -8.5391016 -0.36546013 169.16357 -64.365501 -142.99013
-65.292503 69.651718 -64.161758 -142.15007 -1.3948317 -163.78976
600000000 -0.34220287 171.60397 -30.715927 -8.6488256 -65.016548 69.103409
-30.712122 -8.6629229 -0.36618567 168.98534 -63.663071 -142.03104
-65.063431 69.335236 -63.333725 -141.4474 -1.4085832 -164.58966
610000000 -0.34260038 171.47099 -30.720257 -8.7745094 -64.769859 68.969154
-30.716763 -8.7884941 -0.36695108 168.80679 -62.673969 -142.35692
-64.81678 68.901672 -62.443752 -143.10551 -1.4245666 -165.37541
620000000 -0.34304145 171.33864 -30.724693 -8.9035015 -64.552505 68.616615
-30.720934 -8.9173603 -0.36781725 168.62912 -62.003292 -141.46098
-64.607262 68.49424 -61.776047 -142.74199 -1.4423862 -166.14197
630000000 -0.34345579 171.20657 -30.729458 -9.02806 -64.324112 68.196251
-30.724985 -9.0416698 -0.36856115 168.45168 -61.432171 -141.28091
-64.347862 67.891472 -61.106949 -142.75932 -1.461593 -166.89542
640000000 -0.34395137 171.07466 -30.733814 -9.1555119 -64.113686 67.645081
-30.729298 -9.1679125 -0.36937314 168.2744 -60.716404 -141.53952
-64.157532 67.488884 -60.43071 -142.87523 -1.4833529 -167.6274
650000000 -0.34462929 170.94322 -30.73831 -9.2826395 -63.871284 67.107704
-30.733986 -9.2943773 -0.37022895 168.09622 -60.118233 -141.98174
-63.928844 67.15937 -59.928272 -143.53717 -1.506704 -168.34224
660000000 -0.34514919 170.8125 -30.742792 -9.4119825 -63.652935 66.589333
-30.738281 -9.4201078 -0.37098643 167.91887 -59.51561 -142.08995
-63.690212 66.656845 -59.33519 -143.00005 -1.529659 -169.04292
670000000 -0.34574759 170.68146 -30.746887 -9.5366764 -63.392403 66.108322
-30.74243 -9.541029 -0.37183204 167.74153 -58.905872 -142.17404
-63.412441 65.892303 -58.707836 -142.85181 -1.5545142 -169.76341
680000000 -0.34638122 170.55064 -30.751324 -9.6594362 -63.115959 65.326622
-30.747221 -9.6699476 -0.37257141 167.56418 -58.283569 -142.02808
-63.079437 65.222717 -58.139671 -142.54865 -1.5866679 -170.48265
690000000 -0.34698451 170.42004 -30.755623 -9.7845278 -62.904915 64.431664
-30.751556 -9.7938404 -0.37338838 167.38696 -57.657307 -141.58028
-62.824238 64.295509 -57.515087 -142.07773 -1.6255025 -171.17648
700000000 -0.34767926 170.28973 -30.759953 -9.9072027 -62.663219 63.182858
-30.756245 -9.9163046 -0.37415412 167.20959 -56.636333 -141.59727
-62.606239 63.108376 -56.706005 -142.37369 -1.6690494 -171.82857
710000000 -0.34832576 170.15991 -30.764568 -10.034226 -62.431103 62.255646
-30.761023 -10.038568 -0.37495387 167.03278 -55.903778 -142.48842
-62.394051 62.142593 -55.928467 -142.71989 -1.7132425 -172.45267
720000000 -0.34890699 170.02992 -30.769245 -10.158101 -62.201752 61.367008
-30.765572 -10.160545 -0.37569994 166.85597 -55.20903 -143.79021
-62.168613 61.046867 -55.268696 -143.96309 -1.7624809 -173.06786
730000000 -0.34954673 169.90016 -30.77404 -10.281728 -61.940624 60.317696
-30.769989 -10.28259 -0.376486 166.67958 -54.612659 -145.04544
-61.939037 59.983814 -54.589703 -145.22449 -1.8176869 -173.64255
740000000 -0.35024634 169.77049 -30.778944 -10.407184 -61.708176 59.135902
-30.775463 -10.406007 -0.37729028 166.50328 -54.031738 -146.44858
-61.719002 58.904903 -54.018417 -146.51344 -1.8774259 -174.16229
750000000 -0.35090891 169.64073 -30.784061 -10.528384 -61.486614 57.967415
-30.780363 -10.527883 -0.37804446 166.32733 -53.448795 -147.80257
-61.511959 57.524448 -53.460468 -147.86853 -1.9383377 -174.62057
760000000 -0.35154268 169.51231 -30.789375 -10.648155 -61.291145 56.582966
-30.785395 -10.64924 -0.37887108 166.15176 -52.897701 -149.12868
-61.299618 56.196381 -52.91819 -149.28215 -1.9980583 -175.02798
770000000 -0.35219851 169.38397 -30.793995 -10.770387 -61.09985 55.107178
-30.790417 -10.775163 -0.3797009 165.97621 -52.347733 -150.63762
-61.143154 55.005165 -52.384048 -150.85091 -2.0561886 -175.39328
780000000 -0.35277084 169.2558 -30.798615 -10.893124 -60.926674 53.544518
-30.795479 -10.895601 -0.38051814 165.80109 -51.843433 -152.23099
-61.003704 53.629219 -51.869659 -152.44646 -2.1121023 -175.72673
790000000 -0.35336974 169.12781 -30.803617 -11.014464 -60.734314 52.15892
-30.800167 -11.018197 -0.38139397 165.62645 -51.333847 -153.70354
-60.830734 52.389122 -51.369766 -153.79126 -2.1683717 -176.04286
800000000 -0.35394678 169.0006 -30.808289 -11.134261 -60.567078 50.786991
-30.804842 -11.137854 -0.38214964 165.45163 -50.838528 -155.22069
-60.673435 51.005089 -50.883408 -155.26884 -2.2243943 -176.30315
810000000 -0.35447249 168.87358 -30.813459 -11.254735 -60.415077 49.259518
-30.809441 -11.260622 -0.38287851 165.27708 -50.336788 -156.96153
-60.50766 49.627342 -50.372021 -156.92029 -2.2772014 -176.53253
820000000 -0.35505795 168.74638 -30.818707 -11.375428 -60.290089 47.757221
-30.814671 -11.379174 -0.38372111 165.10222 -49.867458 -158.617
-60.368839 48.111977 -49.907581 -158.55406 -2.3281305 -176.7307
830000000 -0.35570905 168.61969 -30.824051 -11.493296 -60.169868 46.402458
-30.819586 -11.500736 -0.38454998 164.92758 -49.404011 -160.14505
-60.228912 46.713257 -49.464523 -160.13037 -2.3757343 -176.9007
840000000 -0.35638556 168.49327 -30.828997 -11.614303 -60.046455 45.1367
-30.824509 -11.619903 -0.38542503 164.75281 -48.958374 -161.69218
-60.097309 45.446888 -48.997677 -161.66237 -2.4200675 -177.05305
850000000 -0.35705057 168.36754 -30.83408 -11.733907 -59.898628 43.655109
-30.829485 -11.738603 -0.38625452 164.5779 -48.503483 -163.23161
-59.969803 43.876286 -48.536583 -163.33659 -2.4616897 -177.18977
860000000 -0.35758382 168.24214 -30.839043 -11.853437 -59.767998 42.348839
-30.83427 -11.857884 -0.38705495 164.40288 -48.04332 -164.85387
-59.847374 42.42786 -48.077858 -165.08141 -2.5008984 -177.31548
870000000 -0.35815087 168.11688 -30.84375 -11.972016 -59.630421 40.741718
-30.839409 -11.979499 -0.38789046 164.22783 -47.58593 -166.63977
-59.690281 40.916679 -47.632313 -166.77087 -2.5390887 -177.42624
880000000 -0.35862687 167.99257 -30.849037 -12.091839 -59.505951 39.028145
-30.844555 -12.097465 -0.38859776 164.05348 -47.127373 -168.46312
-59.583958 39.181007 -47.180813 -168.45114 -2.5734572 -177.52081
890000000 -0.3591902 167.86902 -30.854034 -12.208467 -59.415894 37.253914
-30.849457 -12.2178 -0.38942391 163.87936 -46.660465 -170.32002
-59.490875 37.351318 -46.684898 -170.40062 -2.6066298 -177.61885
900000000 -0.35979152 167.74544 -30.859276 -12.327974 -59.353355 35.590023
-30.85442 -12.33618 -0.39019904 163.70529 -46.253654 -172.67661
-59.425568 35.753651 -46.266544 -172.7532 -2.6408165 -177.68506
910000000 -0.36032021 167.62244 -30.864481 -12.44716 -59.279678 33.885254
-30.859419 -12.453918 -0.39103374 163.53166 -45.855793 -174.64487
-59.331291 34.109886 -45.867256 -174.80524 -2.6694171 -177.74428
920000000 -0.3609753 167.49936 -30.869789 -12.563871 -59.219299 32.019295
-30.864357 -12.568744 -0.39199606 163.35799 -45.43306 -176.79169
-59.258202 32.363289 -45.434643 -176.89349 -2.6985674 -177.8163
930000000 -0.36157402 167.37666 -30.874718 -12.678646 -59.167931 30.183832
-30.869631 -12.684237 -0.39275333 163.18448 -45.032455 -179.35002
-59.199673 30.480433 -45.037636 -179.44435 -2.7306569 -177.85783
940000000 -0.36212501 167.2543 -30.879942 -12.792773 -59.155865 28.186916
-30.874229 -12.79964 -0.39357054 163.01076 -44.690899 177.92386
-59.190659 28.603361 -44.689709 177.8356 -2.760711 -177.86079
950000000 -0.36260414 167.13216 -30.884684 -12.908918 -59.161182 26.287146
